T3A38 000:000.912   SEGGER J-Link V7.86b Log File
T3A38 000:001.094   DLL Compiled: Mar  1 2023 16:53:12
T3A38 000:001.112   Logging started @ 2023-08-18 03:54
T3A38 000:001.127 - 1.134ms
T3A38 000:001.149 JLINK_GetDLLVersion()
T3A38 000:001.168 - 0.027ms returns 78602
T3A38 000:002.050 JLINK_OpenEx(...)
T3A38 000:018.576   Firmware: J-Link V9 compiled May  7 2021 16:26:12
T3A38 000:018.900   Firmware: J-Link V9 compiled May  7 2021 16:26:12
T3A38 000:019.082   Decompressing FW timestamp took 134 us
T3A38 000:024.805   Hardware: V9.50
T3A38 000:024.858   S/N: 69511181
T3A38 000:024.886   OEM: SEGGER
T3A38 000:024.911   Feature(s): JFlash, GDB, RDI, FlashBP, FlashDL
T3A38 000:025.996   TELNET listener socket opened on port 19021
T3A38 000:026.306   WEBSRV WEBSRV_Init(): Starting webserver thread(s)
T3A38 000:026.569   WEBSRV Webserver running on local port 19080
T3A38 000:043.978 - 41.980ms returns "O.K."
T3A38 000:044.324 JLINK_ExecCommand("ProjectFile=D:\Workspace\e2_studio_workspace_v2023-01\CN028-1\CN028_1_3600W_bidirectional_totempole_converter_debug/CN028_1_3600W_bidirectional_totempole_converter_debug Debug_Flat.jlink", ...). 
T3A38 000:081.344 - 37.044ms returns 0x00
T3A38 000:082.033 JLINK_ExecCommand("device=R7FA6T2BD", ...). 
T3A38 000:082.416   Device "R7FA6T2BD" selected.
T3A38 000:083.376 - 1.329ms returns 0x00
T3A38 000:083.422 JLINK_ReadMem(0xE000EDF0, 0x4 Bytes, ...)
T3A38 000:083.659   ConfigTargetSettings() start
T3A38 000:083.707    J-Link Script File: Executing ConfigTargetSettings()
T3A38 000:083.732   Configuring FlashDLNoRMWThreshold=0x200 in order to make sure that option bytes programming is done via read-modify-write
T3A38 000:103.664   ConfigTargetSettings() end - Took 20ms
T3A38 000:105.050   InitTarget() start
T3A38 000:105.110    J-Link Script File: Executing InitTarget()
T3A38 000:105.130   JTAG selected. Identifying JTAG Chain...
T3A38 000:106.671   TotalIRLen = ?, IRPrint = 0x..FFFFFFFFFFFFFFFFFFFFFFF1
T3A38 000:107.157   Error: Scanning JTAG chain failed.
T3A38 000:107.192   InitTarget() end - Took 2ms
T3A38 000:107.222   Connect failed. Resetting via Reset pin and trying again.
T3A38 000:168.477   ConfigTargetSettings() start
T3A38 000:168.622    J-Link Script File: Executing ConfigTargetSettings()
T3A38 000:168.660   Configuring FlashDLNoRMWThreshold=0x200 in order to make sure that option bytes programming is done via read-modify-write
T3A38 000:192.909   ConfigTargetSettings() end - Took 24ms
T3A38 000:192.962   InitTarget() start
T3A38 000:192.991    J-Link Script File: Executing InitTarget()
T3A38 000:193.010   JTAG selected. Identifying JTAG Chain...
T3A38 000:194.841   TotalIRLen = ?, IRPrint = 0x..FFFFFFFFFFFFFFFFFFFFFFF1
T3A38 000:195.828   Error: Scanning JTAG chain failed.
T3A38 000:195.910   InitTarget() end - Took 3ms
T3A38 000:195.939 - 112.527ms returns 1
T3A38 000:195.972 JLINK_ReadMem(0x400E002C, 0x4 Bytes, ...)
T3A38 000:196.290   ConfigTargetSettings() start
T3A38 000:196.345    J-Link Script File: Executing ConfigTargetSettings()
T3A38 000:196.365   Configuring FlashDLNoRMWThreshold=0x200 in order to make sure that option bytes programming is done via read-modify-write
T3A38 000:216.258   ConfigTargetSettings() end - Took 19ms
T3A38 000:216.302   InitTarget() start
T3A38 000:216.335    J-Link Script File: Executing InitTarget()
T3A38 000:216.357   JTAG selected. Identifying JTAG Chain...
T3A38 000:218.132   TotalIRLen = ?, IRPrint = 0x..FFFFFFFFFFFFFFFFFFFFFFF1
T3A38 000:219.052   Error: Scanning JTAG chain failed.
T3A38 000:219.137   InitTarget() end - Took 3ms
T3A38 000:219.167   Connect failed. Resetting via Reset pin and trying again.
T3A38 000:281.350   ConfigTargetSettings() start
T3A38 000:281.473    J-Link Script File: Executing ConfigTargetSettings()
T3A38 000:281.506   Configuring FlashDLNoRMWThreshold=0x200 in order to make sure that option bytes programming is done via read-modify-write
T3A38 000:305.434   ConfigTargetSettings() end - Took 24ms
T3A38 000:305.489   InitTarget() start
T3A38 000:305.518    J-Link Script File: Executing InitTarget()
T3A38 000:305.578   JTAG selected. Identifying JTAG Chain...
T3A38 000:307.308   TotalIRLen = ?, IRPrint = 0x..FFFFFFFFFFFFFFFFFFFFFFF1
T3A38 000:307.861   Error: Scanning JTAG chain failed.
T3A38 000:307.911   InitTarget() end - Took 2ms
T3A38 000:307.943 - 111.981ms returns 1
T3A38 000:308.082 JLINK_ReadMem(0xE000EDF0, 0x4 Bytes, ...)
T3A38 000:308.315   ConfigTargetSettings() start
T3A38 000:308.357    J-Link Script File: Executing ConfigTargetSettings()
T3A38 000:308.377   Configuring FlashDLNoRMWThreshold=0x200 in order to make sure that option bytes programming is done via read-modify-write
T3A38 000:328.423   ConfigTargetSettings() end - Took 19ms
T3A38 000:328.469   InitTarget() start
T3A38 000:328.494    J-Link Script File: Executing InitTarget()
T3A38 000:328.515   JTAG selected. Identifying JTAG Chain...
T3A38 000:330.219   TotalIRLen = ?, IRPrint = 0x..FFFFFFFFFFFFFFFFFFFFFFF1
T3A38 000:330.797   Error: Scanning JTAG chain failed.
T3A38 000:330.859   InitTarget() end - Took 3ms
T3A38 000:330.885   Connect failed. Resetting via Reset pin and trying again.
T3A38 000:392.722   ConfigTargetSettings() start
T3A38 000:392.836    J-Link Script File: Executing ConfigTargetSettings()
T3A38 000:392.854   Configuring FlashDLNoRMWThreshold=0x200 in order to make sure that option bytes programming is done via read-modify-write
T3A38 000:411.623   ConfigTargetSettings() end - Took 18ms
T3A38 000:411.665   InitTarget() start
T3A38 000:411.690    J-Link Script File: Executing InitTarget()
T3A38 000:411.712   JTAG selected. Identifying JTAG Chain...
T3A38 000:413.396   TotalIRLen = ?, IRPrint = 0x..FFFFFFFFFFFFFFFFFFFFFFF1
T3A38 000:413.958   Error: Scanning JTAG chain failed.
T3A38 000:414.002   InitTarget() end - Took 3ms
T3A38 000:414.027 - 105.955ms returns 1
T3A38 000:414.086 JLINK_ReadMem(0xE000EDF0, 0x4 Bytes, ...)
T3A38 000:414.257   ConfigTargetSettings() start
T3A38 000:414.298    J-Link Script File: Executing ConfigTargetSettings()
T3A38 000:414.316   Configuring FlashDLNoRMWThreshold=0x200 in order to make sure that option bytes programming is done via read-modify-write
T3A38 000:432.827   ConfigTargetSettings() end - Took 19ms
T3A38 000:432.873   InitTarget() start
T3A38 000:432.898    J-Link Script File: Executing InitTarget()
T3A38 000:432.915   JTAG selected. Identifying JTAG Chain...
T3A38 000:434.696   TotalIRLen = ?, IRPrint = 0x..FFFFFFFFFFFFFFFFFFFFFFF1
T3A38 000:435.276   Error: Scanning JTAG chain failed.
T3A38 000:435.321   InitTarget() end - Took 2ms
T3A38 000:435.346   Connect failed. Resetting via Reset pin and trying again.
T3A38 000:497.315   ConfigTargetSettings() start
T3A38 000:497.410    J-Link Script File: Executing ConfigTargetSettings()
T3A38 000:497.436   Configuring FlashDLNoRMWThreshold=0x200 in order to make sure that option bytes programming is done via read-modify-write
T3A38 000:519.935   ConfigTargetSettings() end - Took 22ms
T3A38 000:519.983   InitTarget() start
T3A38 000:520.018    J-Link Script File: Executing InitTarget()
T3A38 000:520.038   JTAG selected. Identifying JTAG Chain...
T3A38 000:522.094   TotalIRLen = ?, IRPrint = 0x..FFFFFFFFFFFFFFFFFFFFFFF1
T3A38 000:522.993   Error: Scanning JTAG chain failed.
T3A38 000:523.091   InitTarget() end - Took 3ms
T3A38 000:523.121 - 109.048ms returns 1
T3A38 000:523.158 JLINK_ReadMem(0x400E001C, 0x4 Bytes, ...)
T3A38 000:523.478   ConfigTargetSettings() start
T3A38 000:523.537    J-Link Script File: Executing ConfigTargetSettings()
T3A38 000:523.566   Configuring FlashDLNoRMWThreshold=0x200 in order to make sure that option bytes programming is done via read-modify-write
T3A38 000:543.345   ConfigTargetSettings() end - Took 19ms
T3A38 000:543.388   InitTarget() start
T3A38 000:543.415    J-Link Script File: Executing InitTarget()
T3A38 000:543.435   JTAG selected. Identifying JTAG Chain...
T3A38 000:545.581   TotalIRLen = ?, IRPrint = 0x..FFFFFFFFFFFFFFFFFFFFFFF1
T3A38 000:546.291   Error: Scanning JTAG chain failed.
T3A38 000:546.371   InitTarget() end - Took 3ms
T3A38 000:546.409   Connect failed. Resetting via Reset pin and trying again.
T3A38 000:607.633   ConfigTargetSettings() start
T3A38 000:607.778    J-Link Script File: Executing ConfigTargetSettings()
T3A38 000:607.823   Configuring FlashDLNoRMWThreshold=0x200 in order to make sure that option bytes programming is done via read-modify-write
T3A38 000:650.836   ConfigTargetSettings() end - Took 43ms
T3A38 000:650.886   InitTarget() start
T3A38 000:650.914    J-Link Script File: Executing InitTarget()
T3A38 000:650.935   JTAG selected. Identifying JTAG Chain...
T3A38 000:652.779   TotalIRLen = ?, IRPrint = 0x..FFFFFFFFFFFFFFFFFFFFFFF1
T3A38 000:653.336   Error: Scanning JTAG chain failed.
T3A38 000:653.394   InitTarget() end - Took 3ms
T3A38 000:653.427 - 130.280ms returns 1
T3A38 000:653.469 JLINK_ReadMem(0xE000EDF0, 0x4 Bytes, ...)
T3A38 000:653.733   ConfigTargetSettings() start
T3A38 000:653.780    J-Link Script File: Executing ConfigTargetSettings()
T3A38 000:653.803   Configuring FlashDLNoRMWThreshold=0x200 in order to make sure that option bytes programming is done via read-modify-write
T3A38 000:673.866   ConfigTargetSettings() end - Took 20ms
T3A38 000:673.917   InitTarget() start
T3A38 000:673.948    J-Link Script File: Executing InitTarget()
T3A38 000:673.970   JTAG selected. Identifying JTAG Chain...
T3A38 000:676.394   TotalIRLen = ?, IRPrint = 0x..FFFFFFFFFFFFFFFFFFFFFFF1
T3A38 000:677.365   Error: Scanning JTAG chain failed.
T3A38 000:677.450   InitTarget() end - Took 4ms
T3A38 000:677.479   Connect failed. Resetting via Reset pin and trying again.
T3A38 000:739.422   ConfigTargetSettings() start
T3A38 000:739.569    J-Link Script File: Executing ConfigTargetSettings()
T3A38 000:739.616   Configuring FlashDLNoRMWThreshold=0x200 in order to make sure that option bytes programming is done via read-modify-write
T3A38 000:776.040   ConfigTargetSettings() end - Took 36ms
T3A38 000:776.103   InitTarget() start
T3A38 000:776.150    J-Link Script File: Executing InitTarget()
T3A38 000:776.180   JTAG selected. Identifying JTAG Chain...
T3A38 000:778.437   TotalIRLen = ?, IRPrint = 0x..FFFFFFFFFFFFFFFFFFFFFFF1
T3A38 000:779.398   Error: Scanning JTAG chain failed.
T3A38 000:779.505   InitTarget() end - Took 3ms
T3A38 000:779.545 - 126.089ms returns 1
T3A38 000:779.591 JLINK_ReadMem(0x400E0018, 0x4 Bytes, ...)
T3A38 000:779.885   ConfigTargetSettings() start
T3A38 000:779.962    J-Link Script File: Executing ConfigTargetSettings()
T3A38 000:779.997   Configuring FlashDLNoRMWThreshold=0x200 in order to make sure that option bytes programming is done via read-modify-write
T3A38 000:806.472   ConfigTargetSettings() end - Took 26ms
T3A38 000:806.523   InitTarget() start
T3A38 000:806.553    J-Link Script File: Executing InitTarget()
T3A38 000:806.579   JTAG selected. Identifying JTAG Chain...
T3A38 000:808.617   TotalIRLen = ?, IRPrint = 0x..FFFFFFFFFFFFFFFFFFFFFFF1
T3A38 000:809.606   Error: Scanning JTAG chain failed.
T3A38 000:809.695   InitTarget() end - Took 3ms
T3A38 000:809.727   Connect failed. Resetting via Reset pin and trying again.
T3A38 000:872.000   ConfigTargetSettings() start
T3A38 000:872.126    J-Link Script File: Executing ConfigTargetSettings()
T3A38 000:872.161   Configuring FlashDLNoRMWThreshold=0x200 in order to make sure that option bytes programming is done via read-modify-write
T3A38 000:901.028   ConfigTargetSettings() end - Took 29ms
T3A38 000:901.088   InitTarget() start
T3A38 000:901.125    J-Link Script File: Executing InitTarget()
T3A38 000:901.153   JTAG selected. Identifying JTAG Chain...
T3A38 000:902.952   TotalIRLen = ?, IRPrint = 0x..FFFFFFFFFFFFFFFFFFFFFFF1
T3A38 000:903.714   Error: Scanning JTAG chain failed.
T3A38 000:903.791   InitTarget() end - Took 3ms
T3A38 000:903.821 - 124.241ms returns 1
T3A38 000:903.867 JLINK_ReadMem(0xE000EDF0, 0x4 Bytes, ...)
T3A38 000:904.131   ConfigTargetSettings() start
T3A38 000:904.180    J-Link Script File: Executing ConfigTargetSettings()
T3A38 000:904.203   Configuring FlashDLNoRMWThreshold=0x200 in order to make sure that option bytes programming is done via read-modify-write
T3A38 000:923.329   ConfigTargetSettings() end - Took 19ms
T3A38 000:923.371   InitTarget() start
T3A38 000:923.397    J-Link Script File: Executing InitTarget()
T3A38 000:923.419   JTAG selected. Identifying JTAG Chain...
T3A38 000:925.566   TotalIRLen = ?, IRPrint = 0x..FFFFFFFFFFFFFFFFFFFFFFF1
T3A38 000:926.342   Error: Scanning JTAG chain failed.
T3A38 000:926.423   InitTarget() end - Took 3ms
T3A38 000:926.449   Connect failed. Resetting via Reset pin and trying again.
T3A38 000:988.110   ConfigTargetSettings() start
T3A38 000:988.185    J-Link Script File: Executing ConfigTargetSettings()
T3A38 000:988.205   Configuring FlashDLNoRMWThreshold=0x200 in order to make sure that option bytes programming is done via read-modify-write
T3A38 001:008.482   ConfigTargetSettings() end - Took 20ms
T3A38 001:008.527   InitTarget() start
T3A38 001:008.556    J-Link Script File: Executing InitTarget()
T3A38 001:008.578   JTAG selected. Identifying JTAG Chain...
T3A38 001:010.376   TotalIRLen = ?, IRPrint = 0x..FFFFFFFFFFFFFFFFFFFFFFF1
T3A38 001:010.979   Error: Scanning JTAG chain failed.
T3A38 001:011.052   InitTarget() end - Took 3ms
T3A38 001:011.082 - 107.224ms returns 1
T3A38 001:011.113 JLINK_ReadMem(0x400E0020, 0x4 Bytes, ...)
T3A38 001:011.397   ConfigTargetSettings() start
T3A38 001:011.455    J-Link Script File: Executing ConfigTargetSettings()
T3A38 001:011.478   Configuring FlashDLNoRMWThreshold=0x200 in order to make sure that option bytes programming is done via read-modify-write
T3A38 001:031.857   ConfigTargetSettings() end - Took 21ms
T3A38 001:031.900   InitTarget() start
T3A38 001:031.944    J-Link Script File: Executing InitTarget()
T3A38 001:031.967   JTAG selected. Identifying JTAG Chain...
T3A38 001:034.119   TotalIRLen = ?, IRPrint = 0x..FFFFFFFFFFFFFFFFFFFFFFF1
T3A38 001:035.077   Error: Scanning JTAG chain failed.
T3A38 001:035.175   InitTarget() end - Took 3ms
T3A38 001:035.204   Connect failed. Resetting via Reset pin and trying again.
T3A38 001:096.456   ConfigTargetSettings() start
T3A38 001:096.556    J-Link Script File: Executing ConfigTargetSettings()
T3A38 001:096.581   Configuring FlashDLNoRMWThreshold=0x200 in order to make sure that option bytes programming is done via read-modify-write
T3A38 001:122.568   ConfigTargetSettings() end - Took 25ms
T3A38 001:122.623   InitTarget() start
T3A38 001:122.648    J-Link Script File: Executing InitTarget()
T3A38 001:122.666   JTAG selected. Identifying JTAG Chain...
T3A38 001:124.808   TotalIRLen = ?, IRPrint = 0x..FFFFFFFFFFFFFFFFFFFFFFF1
T3A38 001:125.789   Error: Scanning JTAG chain failed.
T3A38 001:125.876   InitTarget() end - Took 4ms
T3A38 001:125.918 - 114.814ms returns 1
T3A38 001:125.960 JLINK_ReadMem(0xE000EDF0, 0x4 Bytes, ...)
T3A38 001:126.262   ConfigTargetSettings() start
T3A38 001:126.317    J-Link Script File: Executing ConfigTargetSettings()
T3A38 001:126.338   Configuring FlashDLNoRMWThreshold=0x200 in order to make sure that option bytes programming is done via read-modify-write
T3A38 001:147.256   ConfigTargetSettings() end - Took 21ms
T3A38 001:147.303   InitTarget() start
T3A38 001:147.334    J-Link Script File: Executing InitTarget()
T3A38 001:147.354   JTAG selected. Identifying JTAG Chain...
T3A38 001:149.571   TotalIRLen = ?, IRPrint = 0x..FFFFFFFFFFFFFFFFFFFFFFF1
T3A38 001:150.561   Error: Scanning JTAG chain failed.
T3A38 001:150.658   InitTarget() end - Took 3ms
T3A38 001:150.687   Connect failed. Resetting via Reset pin and trying again.
T3A38 001:211.823   ConfigTargetSettings() start
T3A38 001:211.948    J-Link Script File: Executing ConfigTargetSettings()
T3A38 001:211.982   Configuring FlashDLNoRMWThreshold=0x200 in order to make sure that option bytes programming is done via read-modify-write
T3A38 001:243.775   ConfigTargetSettings() end - Took 32ms
T3A38 001:243.847   InitTarget() start
T3A38 001:243.882    J-Link Script File: Executing InitTarget()
T3A38 001:243.903   JTAG selected. Identifying JTAG Chain...
T3A38 001:246.057   TotalIRLen = ?, IRPrint = 0x..FFFFFFFFFFFFFFFFFFFFFFF1
T3A38 001:247.019   Error: Scanning JTAG chain failed.
T3A38 001:247.104   InitTarget() end - Took 3ms
T3A38 001:247.137 - 121.199ms returns 1
T3A38 001:247.183 JLINK_ReadMem(0x400E0028, 0x4 Bytes, ...)
T3A38 001:247.448   ConfigTargetSettings() start
T3A38 001:247.513    J-Link Script File: Executing ConfigTargetSettings()
T3A38 001:247.533   Configuring FlashDLNoRMWThreshold=0x200 in order to make sure that option bytes programming is done via read-modify-write
T3A38 001:267.529   ConfigTargetSettings() end - Took 20ms
T3A38 001:267.573   InitTarget() start
T3A38 001:267.618    J-Link Script File: Executing InitTarget()
T3A38 001:267.640   JTAG selected. Identifying JTAG Chain...
T3A38 001:269.408   TotalIRLen = ?, IRPrint = 0x..FFFFFFFFFFFFFFFFFFFFFFF1
T3A38 001:270.104   Error: Scanning JTAG chain failed.
T3A38 001:270.153   InitTarget() end - Took 2ms
T3A38 001:270.187   Connect failed. Resetting via Reset pin and trying again.
T3A38 001:331.690   ConfigTargetSettings() start
T3A38 001:331.823    J-Link Script File: Executing ConfigTargetSettings()
T3A38 001:331.858   Configuring FlashDLNoRMWThreshold=0x200 in order to make sure that option bytes programming is done via read-modify-write
T3A38 001:361.533   ConfigTargetSettings() end - Took 29ms
T3A38 001:361.585   InitTarget() start
T3A38 001:361.625    J-Link Script File: Executing InitTarget()
T3A38 001:361.650   JTAG selected. Identifying JTAG Chain...
T3A38 001:363.889   TotalIRLen = ?, IRPrint = 0x..FFFFFFFFFFFFFFFFFFFFFFF1
T3A38 001:364.761   Error: Scanning JTAG chain failed.
T3A38 001:364.870   InitTarget() end - Took 3ms
T3A38 001:364.906 - 117.734ms returns 1
T3A38 001:364.957 JLINK_ReadMem(0xE000EDF0, 0x4 Bytes, ...)
T3A38 001:365.605   ConfigTargetSettings() start
T3A38 001:365.695    J-Link Script File: Executing ConfigTargetSettings()
T3A38 001:365.723   Configuring FlashDLNoRMWThreshold=0x200 in order to make sure that option bytes programming is done via read-modify-write
T3A38 001:386.552   ConfigTargetSettings() end - Took 21ms
T3A38 001:386.597   InitTarget() start
T3A38 001:386.627    J-Link Script File: Executing InitTarget()
T3A38 001:386.649   JTAG selected. Identifying JTAG Chain...
T3A38 001:388.607   TotalIRLen = ?, IRPrint = 0x..FFFFFFFFFFFFFFFFFFFFFFF1
T3A38 001:389.325   Error: Scanning JTAG chain failed.
T3A38 001:389.404   InitTarget() end - Took 2ms
T3A38 001:389.433   Connect failed. Resetting via Reset pin and trying again.
T3A38 001:450.916   ConfigTargetSettings() start
T3A38 001:451.063    J-Link Script File: Executing ConfigTargetSettings()
T3A38 001:451.103   Configuring FlashDLNoRMWThreshold=0x200 in order to make sure that option bytes programming is done via read-modify-write
T3A38 001:482.969   ConfigTargetSettings() end - Took 32ms
T3A38 001:483.022   InitTarget() start
T3A38 001:483.060    J-Link Script File: Executing InitTarget()
T3A38 001:483.084   JTAG selected. Identifying JTAG Chain...
T3A38 001:484.893   TotalIRLen = ?, IRPrint = 0x..FFFFFFFFFFFFFFFFFFFFFFF1
T3A38 001:485.609   Error: Scanning JTAG chain failed.
T3A38 001:485.692   InitTarget() end - Took 3ms
T3A38 001:485.727 - 120.783ms returns 1
T3A38 001:485.768 JLINK_ReadMem(0x400E0024, 0x4 Bytes, ...)
T3A38 001:486.011   ConfigTargetSettings() start
T3A38 001:486.069    J-Link Script File: Executing ConfigTargetSettings()
T3A38 001:486.093   Configuring FlashDLNoRMWThreshold=0x200 in order to make sure that option bytes programming is done via read-modify-write
T3A38 001:505.088   ConfigTargetSettings() end - Took 19ms
T3A38 001:505.128   InitTarget() start
T3A38 001:505.158    J-Link Script File: Executing InitTarget()
T3A38 001:505.177   JTAG selected. Identifying JTAG Chain...
T3A38 001:507.221   TotalIRLen = ?, IRPrint = 0x..FFFFFFFFFFFFFFFFFFFFFFF1
T3A38 001:508.164   Error: Scanning JTAG chain failed.
T3A38 001:508.267   InitTarget() end - Took 4ms
T3A38 001:508.296   Connect failed. Resetting via Reset pin and trying again.
T3A38 001:570.329   ConfigTargetSettings() start
T3A38 001:570.417    J-Link Script File: Executing ConfigTargetSettings()
T3A38 001:570.441   Configuring FlashDLNoRMWThreshold=0x200 in order to make sure that option bytes programming is done via read-modify-write
T3A38 001:592.248   ConfigTargetSettings() end - Took 21ms
T3A38 001:592.295   InitTarget() start
T3A38 001:592.323    J-Link Script File: Executing InitTarget()
T3A38 001:592.342   JTAG selected. Identifying JTAG Chain...
T3A38 001:594.437   TotalIRLen = ?, IRPrint = 0x..FFFFFFFFFFFFFFFFFFFFFFF1
T3A38 001:595.201   Error: Scanning JTAG chain failed.
T3A38 001:595.284   InitTarget() end - Took 3ms
T3A38 001:595.318 - 109.560ms returns 1
T3A38 001:595.359 JLINK_ReadMem(0xE000EDF0, 0x4 Bytes, ...)
T3A38 001:595.641   ConfigTargetSettings() start
T3A38 001:595.712    J-Link Script File: Executing ConfigTargetSettings()
T3A38 001:595.733   Configuring FlashDLNoRMWThreshold=0x200 in order to make sure that option bytes programming is done via read-modify-write
T3A38 001:615.204   ConfigTargetSettings() end - Took 19ms
T3A38 001:615.258   InitTarget() start
T3A38 001:615.289    J-Link Script File: Executing InitTarget()
T3A38 001:615.309   JTAG selected. Identifying JTAG Chain...
T3A38 001:617.362   TotalIRLen = ?, IRPrint = 0x..FFFFFFFFFFFFFFFFFFFFFFF1
T3A38 001:618.374   Error: Scanning JTAG chain failed.
T3A38 001:618.467   InitTarget() end - Took 4ms
T3A38 001:618.497   Connect failed. Resetting via Reset pin and trying again.
T3A38 001:680.418   ConfigTargetSettings() start
T3A38 001:680.562    J-Link Script File: Executing ConfigTargetSettings()
T3A38 001:680.604   Configuring FlashDLNoRMWThreshold=0x200 in order to make sure that option bytes programming is done via read-modify-write
T3A38 001:713.480   ConfigTargetSettings() end - Took 33ms
T3A38 001:713.542   InitTarget() start
T3A38 001:713.582    J-Link Script File: Executing InitTarget()
T3A38 001:713.611   JTAG selected. Identifying JTAG Chain...
T3A38 001:715.428   TotalIRLen = ?, IRPrint = 0x..FFFFFFFFFFFFFFFFFFFFFFF1
T3A38 001:716.318   Error: Scanning JTAG chain failed.
T3A38 001:716.375   InitTarget() end - Took 2ms
T3A38 001:716.409 - 121.061ms returns 1
T3A38 001:716.449 JLINK_ReadMem(0x400E002C, 0x4 Bytes, ...)
T3A38 001:716.627   ConfigTargetSettings() start
T3A38 001:716.683    J-Link Script File: Executing ConfigTargetSettings()
T3A38 001:716.708   Configuring FlashDLNoRMWThreshold=0x200 in order to make sure that option bytes programming is done via read-modify-write
T3A38 001:739.944   ConfigTargetSettings() end - Took 23ms
T3A38 001:739.996   InitTarget() start
T3A38 001:740.026    J-Link Script File: Executing InitTarget()
T3A38 001:740.047   JTAG selected. Identifying JTAG Chain...
T3A38 001:741.942   TotalIRLen = ?, IRPrint = 0x..FFFFFFFFFFFFFFFFFFFFFFF1
T3A38 001:742.746   Error: Scanning JTAG chain failed.
T3A38 001:742.831   InitTarget() end - Took 2ms
T3A38 001:742.863   Connect failed. Resetting via Reset pin and trying again.
T3A38 001:804.748   ConfigTargetSettings() start
T3A38 001:804.961    J-Link Script File: Executing ConfigTargetSettings()
T3A38 001:805.026   Configuring FlashDLNoRMWThreshold=0x200 in order to make sure that option bytes programming is done via read-modify-write
T3A38 001:843.749   ConfigTargetSettings() end - Took 39ms
T3A38 001:843.805   InitTarget() start
T3A38 001:843.841    J-Link Script File: Executing InitTarget()
T3A38 001:843.866   JTAG selected. Identifying JTAG Chain...
T3A38 001:846.373   TotalIRLen = ?, IRPrint = 0x..FFFFFFFFFFFFFFFFFFFFFFF1
T3A38 001:847.323   Error: Scanning JTAG chain failed.
T3A38 001:847.433   InitTarget() end - Took 4ms
T3A38 001:847.464 - 131.025ms returns 1
T3A38 001:847.507 JLINK_ReadMem(0xE000EDF0, 0x4 Bytes, ...)
T3A38 001:847.804   ConfigTargetSettings() start
T3A38 001:847.864    J-Link Script File: Executing ConfigTargetSettings()
T3A38 001:847.886   Configuring FlashDLNoRMWThreshold=0x200 in order to make sure that option bytes programming is done via read-modify-write
T3A38 001:867.083   ConfigTargetSettings() end - Took 19ms
T3A38 001:867.125   InitTarget() start
T3A38 001:867.150    J-Link Script File: Executing InitTarget()
T3A38 001:867.169   JTAG selected. Identifying JTAG Chain...
T3A38 001:868.938   TotalIRLen = ?, IRPrint = 0x..FFFFFFFFFFFFFFFFFFFFFFF1
T3A38 001:869.613   Error: Scanning JTAG chain failed.
T3A38 001:869.695   InitTarget() end - Took 3ms
T3A38 001:869.722   Connect failed. Resetting via Reset pin and trying again.
T3A38 001:930.976   ConfigTargetSettings() start
T3A38 001:931.091    J-Link Script File: Executing ConfigTargetSettings()
T3A38 001:931.123   Configuring FlashDLNoRMWThreshold=0x200 in order to make sure that option bytes programming is done via read-modify-write
T3A38 001:958.137   ConfigTargetSettings() end - Took 27ms
T3A38 001:958.190   InitTarget() start
T3A38 001:958.224    J-Link Script File: Executing InitTarget()
T3A38 001:958.250   JTAG selected. Identifying JTAG Chain...
T3A38 001:960.270   TotalIRLen = ?, IRPrint = 0x..FFFFFFFFFFFFFFFFFFFFFFF1
T3A38 001:960.933   Error: Scanning JTAG chain failed.
T3A38 001:960.997   InitTarget() end - Took 3ms
T3A38 001:961.029 - 113.532ms returns 1
T3A38 001:961.066 JLINK_ReadMem(0x400E002C, 0x4 Bytes, ...)
T3A38 001:961.364   ConfigTargetSettings() start
T3A38 001:961.424    J-Link Script File: Executing ConfigTargetSettings()
T3A38 001:961.450   Configuring FlashDLNoRMWThreshold=0x200 in order to make sure that option bytes programming is done via read-modify-write
T3A38 001:981.349   ConfigTargetSettings() end - Took 20ms
T3A38 001:981.392   InitTarget() start
T3A38 001:981.417    J-Link Script File: Executing InitTarget()
T3A38 001:981.436   JTAG selected. Identifying JTAG Chain...
T3A38 001:983.544   TotalIRLen = ?, IRPrint = 0x..FFFFFFFFFFFFFFFFFFFFFFF1
T3A38 001:984.287   Error: Scanning JTAG chain failed.
T3A38 001:984.369   InitTarget() end - Took 3ms
T3A38 001:984.401   Connect failed. Resetting via Reset pin and trying again.
T3A38 002:046.530   ConfigTargetSettings() start
T3A38 002:046.659    J-Link Script File: Executing ConfigTargetSettings()
T3A38 002:046.680   Configuring FlashDLNoRMWThreshold=0x200 in order to make sure that option bytes programming is done via read-modify-write
T3A38 002:066.216   ConfigTargetSettings() end - Took 19ms
T3A38 002:066.261   InitTarget() start
T3A38 002:066.289    J-Link Script File: Executing InitTarget()
T3A38 002:066.312   JTAG selected. Identifying JTAG Chain...
T3A38 002:068.210   TotalIRLen = ?, IRPrint = 0x..FFFFFFFFFFFFFFFFFFFFFFF1
T3A38 002:069.141   Error: Scanning JTAG chain failed.
T3A38 002:069.223   InitTarget() end - Took 3ms
T3A38 002:069.253 - 108.198ms returns 1
T3A38 002:069.298 JLINK_ReadMem(0xE000EDF0, 0x4 Bytes, ...)
T3A38 002:069.569   ConfigTargetSettings() start
T3A38 002:069.627    J-Link Script File: Executing ConfigTargetSettings()
T3A38 002:069.649   Configuring FlashDLNoRMWThreshold=0x200 in order to make sure that option bytes programming is done via read-modify-write
T3A38 002:088.389   ConfigTargetSettings() end - Took 18ms
T3A38 002:088.440   InitTarget() start
T3A38 002:088.471    J-Link Script File: Executing InitTarget()
T3A38 002:088.493   JTAG selected. Identifying JTAG Chain...
T3A38 002:090.461   TotalIRLen = ?, IRPrint = 0x..FFFFFFFFFFFFFFFFFFFFFFF1
T3A38 002:091.358   Error: Scanning JTAG chain failed.
T3A38 002:091.445   InitTarget() end - Took 3ms
T3A38 002:091.481   Connect failed. Resetting via Reset pin and trying again.
T3A38 002:152.742   ConfigTargetSettings() start
T3A38 002:152.845    J-Link Script File: Executing ConfigTargetSettings()
T3A38 002:152.871   Configuring FlashDLNoRMWThreshold=0x200 in order to make sure that option bytes programming is done via read-modify-write
T3A38 002:176.163   ConfigTargetSettings() end - Took 23ms
T3A38 002:176.210   InitTarget() start
T3A38 002:176.240    J-Link Script File: Executing InitTarget()
T3A38 002:176.260   JTAG selected. Identifying JTAG Chain...
T3A38 002:178.360   TotalIRLen = ?, IRPrint = 0x..FFFFFFFFFFFFFFFFFFFFFFF1
T3A38 002:179.244   Error: Scanning JTAG chain failed.
T3A38 002:179.331   InitTarget() end - Took 3ms
T3A38 002:179.361 - 110.079ms returns 1
T3A38 002:179.402 JLINK_ReadMem(0x400E001C, 0x4 Bytes, ...)
T3A38 002:179.584   ConfigTargetSettings() start
T3A38 002:179.642    J-Link Script File: Executing ConfigTargetSettings()
T3A38 002:179.662   Configuring FlashDLNoRMWThreshold=0x200 in order to make sure that option bytes programming is done via read-modify-write
T3A38 002:198.797   ConfigTargetSettings() end - Took 19ms
T3A38 002:198.858   InitTarget() start
T3A38 002:198.883    J-Link Script File: Executing InitTarget()
T3A38 002:198.901   JTAG selected. Identifying JTAG Chain...
T3A38 002:200.792   TotalIRLen = ?, IRPrint = 0x..FFFFFFFFFFFFFFFFFFFFFFF1
T3A38 002:201.488   Error: Scanning JTAG chain failed.
T3A38 002:201.577   InitTarget() end - Took 3ms
T3A38 002:201.606   Connect failed. Resetting via Reset pin and trying again.
T3A38 002:263.324   ConfigTargetSettings() start
T3A38 002:263.525    J-Link Script File: Executing ConfigTargetSettings()
T3A38 002:263.581   Configuring FlashDLNoRMWThreshold=0x200 in order to make sure that option bytes programming is done via read-modify-write
T3A38 002:286.630   ConfigTargetSettings() end - Took 23ms
T3A38 002:286.672   InitTarget() start
T3A38 002:286.701    J-Link Script File: Executing InitTarget()
T3A38 002:286.723   JTAG selected. Identifying JTAG Chain...
T3A38 002:288.587   TotalIRLen = ?, IRPrint = 0x..FFFFFFFFFFFFFFFFFFFFFFF1
T3A38 002:289.363   Error: Scanning JTAG chain failed.
T3A38 002:289.443   InitTarget() end - Took 3ms
T3A38 002:289.471 - 110.078ms returns 1
T3A38 002:289.511 JLINK_ReadMem(0xE000EDF0, 0x4 Bytes, ...)
T3A38 002:289.764   ConfigTargetSettings() start
T3A38 002:289.820    J-Link Script File: Executing ConfigTargetSettings()
T3A38 002:289.840   Configuring FlashDLNoRMWThreshold=0x200 in order to make sure that option bytes programming is done via read-modify-write
T3A38 002:309.460   ConfigTargetSettings() end - Took 20ms
T3A38 002:309.508   InitTarget() start
T3A38 002:309.537    J-Link Script File: Executing InitTarget()
T3A38 002:309.558   JTAG selected. Identifying JTAG Chain...
T3A38 002:311.715   TotalIRLen = ?, IRPrint = 0x..FFFFFFFFFFFFFFFFFFFFFFF1
T3A38 002:312.716   Error: Scanning JTAG chain failed.
T3A38 002:312.801   InitTarget() end - Took 2ms
T3A38 002:312.832   Connect failed. Resetting via Reset pin and trying again.
T3A38 002:374.457   ConfigTargetSettings() start
T3A38 002:374.610    J-Link Script File: Executing ConfigTargetSettings()
T3A38 002:374.648   Configuring FlashDLNoRMWThreshold=0x200 in order to make sure that option bytes programming is done via read-modify-write
T3A38 002:406.611   ConfigTargetSettings() end - Took 32ms
T3A38 002:406.662   InitTarget() start
T3A38 002:406.697    J-Link Script File: Executing InitTarget()
T3A38 002:406.721   JTAG selected. Identifying JTAG Chain...
T3A38 002:408.712   TotalIRLen = ?, IRPrint = 0x..FFFFFFFFFFFFFFFFFFFFFFF1
T3A38 002:409.600   Error: Scanning JTAG chain failed.
T3A38 002:409.702   InitTarget() end - Took 2ms
T3A38 002:409.739 - 120.241ms returns 1
T3A38 002:409.779 JLINK_ReadMem(0x400E0018, 0x4 Bytes, ...)
T3A38 002:409.998   ConfigTargetSettings() start
T3A38 002:410.068    J-Link Script File: Executing ConfigTargetSettings()
T3A38 002:410.096   Configuring FlashDLNoRMWThreshold=0x200 in order to make sure that option bytes programming is done via read-modify-write
T3A38 002:430.386   ConfigTargetSettings() end - Took 20ms
T3A38 002:430.432   InitTarget() start
T3A38 002:430.461    J-Link Script File: Executing InitTarget()
T3A38 002:430.481   JTAG selected. Identifying JTAG Chain...
T3A38 002:432.547   TotalIRLen = ?, IRPrint = 0x..FFFFFFFFFFFFFFFFFFFFFFF1
T3A38 002:433.247   Error: Scanning JTAG chain failed.
T3A38 002:433.329   InitTarget() end - Took 4ms
T3A38 002:433.356   Connect failed. Resetting via Reset pin and trying again.
T3A38 002:495.468   ConfigTargetSettings() start
T3A38 002:495.831    J-Link Script File: Executing ConfigTargetSettings()
T3A38 002:495.879   Configuring FlashDLNoRMWThreshold=0x200 in order to make sure that option bytes programming is done via read-modify-write
T3A38 002:527.458   ConfigTargetSettings() end - Took 32ms
T3A38 002:527.511   InitTarget() start
T3A38 002:527.549    J-Link Script File: Executing InitTarget()
T3A38 002:527.575   JTAG selected. Identifying JTAG Chain...
T3A38 002:529.717   TotalIRLen = ?, IRPrint = 0x..FFFFFFFFFFFFFFFFFFFFFFF1
T3A38 002:530.590   Error: Scanning JTAG chain failed.
T3A38 002:530.687   InitTarget() end - Took 3ms
T3A38 002:530.723 - 120.954ms returns 1
T3A38 002:530.769 JLINK_ReadMem(0xE000EDF0, 0x4 Bytes, ...)
T3A38 002:531.071   ConfigTargetSettings() start
T3A38 002:531.136    J-Link Script File: Executing ConfigTargetSettings()
T3A38 002:531.159   Configuring FlashDLNoRMWThreshold=0x200 in order to make sure that option bytes programming is done via read-modify-write
T3A38 002:552.198   ConfigTargetSettings() end - Took 21ms
T3A38 002:552.245   InitTarget() start
T3A38 002:552.273    J-Link Script File: Executing InitTarget()
T3A38 002:552.292   JTAG selected. Identifying JTAG Chain...
T3A38 002:554.456   TotalIRLen = ?, IRPrint = 0x..FFFFFFFFFFFFFFFFFFFFFFF1
T3A38 002:555.250   Error: Scanning JTAG chain failed.
T3A38 002:555.339   InitTarget() end - Took 4ms
T3A38 002:555.369   Connect failed. Resetting via Reset pin and trying again.
T3A38 002:616.980   ConfigTargetSettings() start
T3A38 002:617.082    J-Link Script File: Executing ConfigTargetSettings()
T3A38 002:617.108   Configuring FlashDLNoRMWThreshold=0x200 in order to make sure that option bytes programming is done via read-modify-write
T3A38 002:639.683   ConfigTargetSettings() end - Took 23ms
T3A38 002:639.737   InitTarget() start
T3A38 002:639.772    J-Link Script File: Executing InitTarget()
T3A38 002:639.795   JTAG selected. Identifying JTAG Chain...
T3A38 002:641.735   TotalIRLen = ?, IRPrint = 0x..FFFFFFFFFFFFFFFFFFFFFFF1
T3A38 002:642.699   Error: Scanning JTAG chain failed.
T3A38 002:642.810   InitTarget() end - Took 3ms
T3A38 002:642.842 - 112.082ms returns 1
T3A38 002:642.875 JLINK_ReadMem(0x400E0020, 0x4 Bytes, ...)
T3A38 002:643.168   ConfigTargetSettings() start
T3A38 002:643.229    J-Link Script File: Executing ConfigTargetSettings()
T3A38 002:643.251   Configuring FlashDLNoRMWThreshold=0x200 in order to make sure that option bytes programming is done via read-modify-write
T3A38 002:663.010   ConfigTargetSettings() end - Took 20ms
T3A38 002:663.056   InitTarget() start
T3A38 002:663.086    J-Link Script File: Executing InitTarget()
T3A38 002:663.107   JTAG selected. Identifying JTAG Chain...
T3A38 002:665.324   TotalIRLen = ?, IRPrint = 0x..FFFFFFFFFFFFFFFFFFFFFFF1
T3A38 002:666.275   Error: Scanning JTAG chain failed.
T3A38 002:666.382   InitTarget() end - Took 4ms
T3A38 002:666.468   Connect failed. Resetting via Reset pin and trying again.
T3A38 002:729.360   ConfigTargetSettings() start
T3A38 002:729.510    J-Link Script File: Executing ConfigTargetSettings()
T3A38 002:729.588   Configuring FlashDLNoRMWThreshold=0x200 in order to make sure that option bytes programming is done via read-modify-write
T3A38 002:756.298   ConfigTargetSettings() end - Took 27ms
T3A38 002:756.350   InitTarget() start
T3A38 002:756.382    J-Link Script File: Executing InitTarget()
T3A38 002:756.405   JTAG selected. Identifying JTAG Chain...
T3A38 002:758.810   TotalIRLen = ?, IRPrint = 0x..FFFFFFFFFFFFFFFFFFFFFFF1
T3A38 002:759.523   Error: Scanning JTAG chain failed.
T3A38 002:759.627   InitTarget() end - Took 2ms
T3A38 002:759.668 - 116.809ms returns 1
T3A38 002:759.849 JLINK_ReadMem(0xE000EDF0, 0x4 Bytes, ...)
T3A38 002:760.456   ConfigTargetSettings() start
T3A38 002:760.531    J-Link Script File: Executing ConfigTargetSettings()
T3A38 002:760.555   Configuring FlashDLNoRMWThreshold=0x200 in order to make sure that option bytes programming is done via read-modify-write
T3A38 002:780.045   ConfigTargetSettings() end - Took 20ms
T3A38 002:780.094   InitTarget() start
T3A38 002:780.122    J-Link Script File: Executing InitTarget()
T3A38 002:780.144   JTAG selected. Identifying JTAG Chain...
T3A38 002:781.961   TotalIRLen = ?, IRPrint = 0x..FFFFFFFFFFFFFFFFFFFFFFF1
T3A38 002:782.649   Error: Scanning JTAG chain failed.
T3A38 002:782.736   InitTarget() end - Took 3ms
T3A38 002:782.766   Connect failed. Resetting via Reset pin and trying again.
T3A38 002:843.941   ConfigTargetSettings() start
T3A38 002:844.078    J-Link Script File: Executing ConfigTargetSettings()
T3A38 002:844.116   Configuring FlashDLNoRMWThreshold=0x200 in order to make sure that option bytes programming is done via read-modify-write
T3A38 002:876.069   ConfigTargetSettings() end - Took 32ms
T3A38 002:876.145   InitTarget() start
T3A38 002:876.184    J-Link Script File: Executing InitTarget()
T3A38 002:876.215   JTAG selected. Identifying JTAG Chain...
T3A38 002:878.061   TotalIRLen = ?, IRPrint = 0x..FFFFFFFFFFFFFFFFFFFFFFF1
T3A38 002:878.672   Error: Scanning JTAG chain failed.
T3A38 002:878.728   InitTarget() end - Took 3ms
T3A38 002:878.761 - 118.922ms returns 1
T3A38 002:878.794 JLINK_ReadMem(0x400E0028, 0x4 Bytes, ...)
T3A38 002:879.038   ConfigTargetSettings() start
T3A38 002:879.093    J-Link Script File: Executing ConfigTargetSettings()
T3A38 002:879.118   Configuring FlashDLNoRMWThreshold=0x200 in order to make sure that option bytes programming is done via read-modify-write
T3A38 002:898.389   ConfigTargetSettings() end - Took 19ms
T3A38 002:898.436   InitTarget() start
T3A38 002:898.466    J-Link Script File: Executing InitTarget()
T3A38 002:898.486   JTAG selected. Identifying JTAG Chain...
T3A38 002:900.610   TotalIRLen = ?, IRPrint = 0x..FFFFFFFFFFFFFFFFFFFFFFF1
T3A38 002:901.316   Error: Scanning JTAG chain failed.
T3A38 002:901.394   InitTarget() end - Took 3ms
T3A38 002:901.429   Connect failed. Resetting via Reset pin and trying again.
T3A38 002:962.862   ConfigTargetSettings() start
T3A38 002:962.999    J-Link Script File: Executing ConfigTargetSettings()
T3A38 002:963.033   Configuring FlashDLNoRMWThreshold=0x200 in order to make sure that option bytes programming is done via read-modify-write
T3A38 002:993.032   ConfigTargetSettings() end - Took 30ms
T3A38 002:993.085   InitTarget() start
T3A38 002:993.114    J-Link Script File: Executing InitTarget()
T3A38 002:993.137   JTAG selected. Identifying JTAG Chain...
T3A38 002:994.924   TotalIRLen = ?, IRPrint = 0x..FFFFFFFFFFFFFFFFFFFFFFF1
T3A38 002:995.513   Error: Scanning JTAG chain failed.
T3A38 002:995.564   InitTarget() end - Took 2ms
T3A38 002:995.598 - 116.813ms returns 1
T3A38 002:995.638 JLINK_ReadMem(0xE000EDF0, 0x4 Bytes, ...)
T3A38 002:995.959   ConfigTargetSettings() start
T3A38 002:996.008    J-Link Script File: Executing ConfigTargetSettings()
T3A38 002:996.029   Configuring FlashDLNoRMWThreshold=0x200 in order to make sure that option bytes programming is done via read-modify-write
T3A38 003:016.055   ConfigTargetSettings() end - Took 20ms
T3A38 003:016.099   InitTarget() start
T3A38 003:016.123    J-Link Script File: Executing InitTarget()
T3A38 003:016.142   JTAG selected. Identifying JTAG Chain...
T3A38 003:017.775   TotalIRLen = ?, IRPrint = 0x..FFFFFFFFFFFFFFFFFFFFFFF1
T3A38 003:018.245   Error: Scanning JTAG chain failed.
T3A38 003:018.290   InitTarget() end - Took 2ms
T3A38 003:018.315   Connect failed. Resetting via Reset pin and trying again.
T3A38 003:079.943   ConfigTargetSettings() start
T3A38 003:080.021    J-Link Script File: Executing ConfigTargetSettings()
T3A38 003:080.038   Configuring FlashDLNoRMWThreshold=0x200 in order to make sure that option bytes programming is done via read-modify-write
T3A38 003:097.876   ConfigTargetSettings() end - Took 18ms
T3A38 003:097.920   InitTarget() start
T3A38 003:097.948    J-Link Script File: Executing InitTarget()
T3A38 003:097.970   JTAG selected. Identifying JTAG Chain...
T3A38 003:100.185   TotalIRLen = ?, IRPrint = 0x..FFFFFFFFFFFFFFFFFFFFFFF1
T3A38 003:101.044   Error: Scanning JTAG chain failed.
T3A38 003:101.131   InitTarget() end - Took 3ms
T3A38 003:101.164 - 105.535ms returns 1
T3A38 003:101.211 JLINK_ReadMem(0x400E0024, 0x4 Bytes, ...)
T3A38 003:101.672   ConfigTargetSettings() start
T3A38 003:101.755    J-Link Script File: Executing ConfigTargetSettings()
T3A38 003:101.776   Configuring FlashDLNoRMWThreshold=0x200 in order to make sure that option bytes programming is done via read-modify-write
T3A38 003:122.472   ConfigTargetSettings() end - Took 21ms
T3A38 003:122.533   InitTarget() start
T3A38 003:122.564    J-Link Script File: Executing InitTarget()
T3A38 003:122.584   JTAG selected. Identifying JTAG Chain...
T3A38 003:124.647   TotalIRLen = ?, IRPrint = 0x..FFFFFFFFFFFFFFFFFFFFFFF1
T3A38 003:125.497   Error: Scanning JTAG chain failed.
T3A38 003:125.606   InitTarget() end - Took 3ms
T3A38 003:125.642   Connect failed. Resetting via Reset pin and trying again.
T3A38 003:186.831   ConfigTargetSettings() start
T3A38 003:186.985    J-Link Script File: Executing ConfigTargetSettings()
T3A38 003:187.025   Configuring FlashDLNoRMWThreshold=0x200 in order to make sure that option bytes programming is done via read-modify-write
T3A38 003:220.514   ConfigTargetSettings() end - Took 34ms
T3A38 003:220.578   InitTarget() start
T3A38 003:220.616    J-Link Script File: Executing InitTarget()
T3A38 003:220.643   JTAG selected. Identifying JTAG Chain...
T3A38 003:222.635   TotalIRLen = ?, IRPrint = 0x..FFFFFFFFFFFFFFFFFFFFFFF1
T3A38 003:223.323   Error: Scanning JTAG chain failed.
T3A38 003:223.400   InitTarget() end - Took 3ms
T3A38 003:223.443 - 122.245ms returns 1
T3A38 003:223.982 JLINK_ReadMem(0xE000EDF0, 0x4 Bytes, ...)
T3A38 003:224.303   ConfigTargetSettings() start
T3A38 003:224.385    J-Link Script File: Executing ConfigTargetSettings()
T3A38 003:224.417   Configuring FlashDLNoRMWThreshold=0x200 in order to make sure that option bytes programming is done via read-modify-write
T3A38 003:248.593   ConfigTargetSettings() end - Took 24ms
T3A38 003:248.639   InitTarget() start
T3A38 003:248.669    J-Link Script File: Executing InitTarget()
T3A38 003:248.692   JTAG selected. Identifying JTAG Chain...
T3A38 003:250.664   TotalIRLen = ?, IRPrint = 0x..FFFFFFFFFFFFFFFFFFFFFFF1
T3A38 003:251.389   Error: Scanning JTAG chain failed.
T3A38 003:251.470   InitTarget() end - Took 3ms
T3A38 003:251.498   Connect failed. Resetting via Reset pin and trying again.
T3A38 003:313.510   ConfigTargetSettings() start
T3A38 003:313.592    J-Link Script File: Executing ConfigTargetSettings()
T3A38 003:313.611   Configuring FlashDLNoRMWThreshold=0x200 in order to make sure that option bytes programming is done via read-modify-write
T3A38 003:331.249   ConfigTargetSettings() end - Took 17ms
T3A38 003:331.293   InitTarget() start
T3A38 003:331.320    J-Link Script File: Executing InitTarget()
T3A38 003:331.339   JTAG selected. Identifying JTAG Chain...
T3A38 003:333.209   TotalIRLen = ?, IRPrint = 0x..FFFFFFFFFFFFFFFFFFFFFFF1
T3A38 003:333.826   Error: Scanning JTAG chain failed.
T3A38 003:333.874   InitTarget() end - Took 2ms
T3A38 003:333.897 - 109.925ms returns 1
T3A38 003:334.343 JLINK_ReadMem(0x400E002C, 0x4 Bytes, ...)
T3A38 003:334.635   ConfigTargetSettings() start
T3A38 003:334.676    J-Link Script File: Executing ConfigTargetSettings()
T3A38 003:334.694   Configuring FlashDLNoRMWThreshold=0x200 in order to make sure that option bytes programming is done via read-modify-write
T3A38 003:351.618   ConfigTargetSettings() end - Took 17ms
T3A38 003:351.657   InitTarget() start
T3A38 003:351.683    J-Link Script File: Executing InitTarget()
T3A38 003:351.700   JTAG selected. Identifying JTAG Chain...
T3A38 003:353.401   TotalIRLen = ?, IRPrint = 0x..FFFFFFFFFFFFFFFFFFFFFFF1
T3A38 003:354.011   Error: Scanning JTAG chain failed.
T3A38 003:354.053   InitTarget() end - Took 3ms
T3A38 003:354.079   Connect failed. Resetting via Reset pin and trying again.
T3A38 003:415.722   ConfigTargetSettings() start
T3A38 003:415.837    J-Link Script File: Executing ConfigTargetSettings()
T3A38 003:415.876   Configuring FlashDLNoRMWThreshold=0x200 in order to make sure that option bytes programming is done via read-modify-write
T3A38 003:438.989   ConfigTargetSettings() end - Took 23ms
T3A38 003:439.038   InitTarget() start
T3A38 003:439.069    J-Link Script File: Executing InitTarget()
T3A38 003:439.094   JTAG selected. Identifying JTAG Chain...
T3A38 003:440.966   TotalIRLen = ?, IRPrint = 0x..FFFFFFFFFFFFFFFFFFFFFFF1
T3A38 003:441.880   Error: Scanning JTAG chain failed.
T3A38 003:441.978   InitTarget() end - Took 3ms
T3A38 003:442.008 - 107.678ms returns 1
T3A38 003:442.309 JLINK_TIF_GetAvailable(...)
T3A38 003:442.589 - 0.317ms
T3A38 003:442.644 JLINK_TIF_Select(JLINKARM_TIF_SWD)
T3A38 003:444.896 - 2.297ms returns 0x00
T3A38 003:445.470 JLINK_SetSpeed(4000)
T3A38 003:446.136 - 0.706ms
T3A38 003:446.200 JLINK_SetEndian(ARM_ENDIAN_LITTLE)
T3A38 003:446.222 - 0.032ms returns 0
T3A38 003:446.249 JLINK_SetInitRegsOnReset(OFF)
T3A38 003:446.704 - 0.469ms returns 1
T3A38 003:446.734 JLINK_SetResetType(JLINKARM_RESET_TYPE_NO_RESET)
T3A38 003:446.756 - 0.030ms returns JLINKARM_RESET_TYPE_NORMAL
T3A38 003:446.778 JLINK_ExecCommand("EnableFlashBPs", ...). 
T3A38 003:446.804 - 0.012ms returns 0x00
T3A38 003:446.828 JLINK_ExecCommand("SetAllowFlashCache = 1", ...). 
T3A38 003:446.854 - 0.010ms returns 0x01
T3A38 003:446.875 JLINK_ExecCommand("SetRestartOnClose = 0", ...). 
T3A38 003:446.901 - 0.012ms returns 0x01
T3A38 003:446.925 JLINK_EnableSoftBPs(ON)
T3A38 003:446.948 - 0.033ms
T3A38 003:446.970 JLINK_Connect()
T3A38 003:448.826   ConfigTargetSettings() start
T3A38 003:448.905    J-Link Script File: Executing ConfigTargetSettings()
T3A38 003:448.928   Configuring FlashDLNoRMWThreshold=0x200 in order to make sure that option bytes programming is done via read-modify-write
T3A38 003:467.982   ConfigTargetSettings() end - Took 19ms
T3A38 003:468.026   InitTarget() start
T3A38 003:468.053    J-Link Script File: Executing InitTarget()
T3A38 003:468.073   SWD selected. Executing JTAG -> SWD switching sequence.
T3A38 003:470.304   DAP initialized successfully.
T3A38 003:470.378   Determining TrustZone configuration...
T3A38 003:471.742     Secure Debug: Enabled (SSD)
T3A38 003:471.795   Determining currently configured transfer type by reading the AHB-AP CSW register.
T3A38 003:472.460     --> Correct transfer type configured. Done.
T3A38 003:472.510   InitTarget() end - Took 4ms
T3A38 003:473.486   Found SW-DP with ID 0x6BA02477
T3A38 003:475.320   DPIDR: 0x6BA02477
T3A38 003:475.362   CoreSight SoC-400 or earlier
T3A38 003:475.395   Scanning AP map to find all available APs
T3A38 003:476.032   AP[2]: Stopped AP scan as end of AP map has been reached
T3A38 003:476.280   AP[0]: AHB-AP (IDR: 0x84770001)
T3A38 003:476.322   AP[1]: APB-AP (IDR: 0x54770002)
T3A38 003:476.353   Iterating through AP map to find AHB-AP to use
T3A38 003:477.031   AP[0]: Core found
T3A38 003:477.079   AP[0]: AHB-AP ROM base: 0xE00FE000
T3A38 003:477.651   CPUID register: 0x410FD214. Implementer code: 0x41 (ARM)
T3A38 003:477.697   Feature set: Mainline
T3A38 003:478.031   Cache: No cache
T3A38 003:478.223   Found Cortex-M33 r0p4, Little endian.
T3A38 003:479.062   -- Max. mem block: 0x00010C40
T3A38 003:479.669   Cortex-M (ARMv8-M and later): The connected J-Link (S/N 69511181) uses an old firmware module that does not handle I/D-cache correctly. Proper debugging functionality cannot be guaranteed if cache is enabled
T3A38 003:479.894   CPU_ReadMem(4 bytes @ 0xE000EDF0)
T3A38 003:480.195   CPU_WriteMem(4 bytes @ 0xE000EDF0)
T3A38 003:480.459   CPU_ReadMem(4 bytes @ 0xE0002000)
T3A38 003:480.711   FPUnit: 8 code (BP) slots and 0 literal slots
T3A38 003:480.752   CPU_ReadMem(4 bytes @ 0xE000EDFC)
T3A38 003:480.991   CPU_WriteMem(4 bytes @ 0xE000EDFC)
T3A38 003:481.266   CPU_ReadMem(4 bytes @ 0xE0001000)
T3A38 003:481.503   CPU_ReadMem(4 bytes @ 0xE0001000)
T3A38 003:481.766   CPU_ReadMem(4 bytes @ 0xE0001028)
T3A38 003:482.019   CPU_ReadMem(4 bytes @ 0xE0001038)
T3A38 003:482.345   CPU_ReadMem(4 bytes @ 0xE0001048)
T3A38 003:482.611   CPU_ReadMem(4 bytes @ 0xE0001058)
T3A38 003:482.977   CPU_WriteMem(4 bytes @ 0xE0001000)
T3A38 003:483.371   CPU_ReadMem(4 bytes @ 0xE000ED88)
T3A38 003:483.654   CPU_WriteMem(4 bytes @ 0xE000ED88)
T3A38 003:483.915   CPU_ReadMem(4 bytes @ 0xE000ED88)
T3A38 003:484.198   CPU_WriteMem(4 bytes @ 0xE000ED88)
T3A38 003:484.472   CPU_ReadMem(4 bytes @ 0xE000EFB8)
T3A38 003:484.741   Security extension: implemented
T3A38 003:484.775   Secure debug: enabled
T3A38 003:484.801   CoreSight components:
T3A38 003:484.834   ROMTbl[0] @ E00FE000
T3A38 003:484.865   CPU_ReadMem(64 bytes @ 0xE00FE000)
T3A38 003:485.472   CPU_ReadMem(32 bytes @ 0xE0044FE0)
T3A38 003:485.968   CPU_ReadMem(4 bytes @ 0xE0044FBC)
T3A38 003:486.249   CPU_ReadMem(4 bytes @ 0xE0044FCC)
T3A38 003:486.495   [0][0]: E0044000 CID B105900D PID 005BB906 DEVARCH 00000000 DEVTYPE 14 CTI (?)
T3A38 003:486.533   CPU_ReadMem(32 bytes @ 0xE0047FE0)
T3A38 003:486.960   CPU_ReadMem(4 bytes @ 0xE0047FBC)
T3A38 003:487.218   CPU_ReadMem(4 bytes @ 0xE0047FCC)
T3A38 003:487.456   [0][1]: E0047000 CID B105900D PID 003BB908 DEVARCH 00000000 DEVTYPE 12 CSTF
T3A38 003:487.496   CPU_ReadMem(32 bytes @ 0xE0048FE0)
T3A38 003:487.923   CPU_ReadMem(4 bytes @ 0xE0048FBC)
T3A38 003:488.219   CPU_ReadMem(4 bytes @ 0xE0048FCC)
